
T21C10 000:004 SEGGER J-Link V6.32c Log File (0000ms, 0004ms total)
T21C10 000:004 DLL Compiled: May 11 2018 16:30:26 (0000ms, 0004ms total)
T21C10 000:004 Logging started @ 2024-10-01 18:42 (0000ms, 0004ms total)
T21C10 000:004 JLINK_SetWarnOutHandler(...) (0000ms, 0004ms total)
T21C10 000:004 JLINK_OpenEx(...)
Firmware: J-Link V9 compiled May  7 2021 16:26:12
Hardware: V9.70
S/N: 150711101
Feature(s): GDB, RDI, FlashBP, FlashDL, JFlash
TELNET listener socket opened on port 19021WEBSRV 
Starting webserver (0016ms, 0020ms total)
T21C10 000:004 WEBSRV Webserver running on local port 19080 (0016ms, 0020ms total)
T21C10 000:004   returns O.K. (0016ms, 0020ms total)
T21C10 000:020 JLINK_GetEmuCaps()  returns 0xB9FF7BBF (0000ms, 0020ms total)
T21C10 000:020 JLINK_TIF_GetAvailable(...) (0000ms, 0020ms total)
T21C10 000:020 JLINK_SetErrorOutHandler(...) (0000ms, 0020ms total)
T21C10 000:020 JLINK_ExecCommand("ProjectFile = "F:\project\git\RC\MDK-ARM\JLinkSettings.ini"", ...). Ref file found at: F:\tools\keil\ARM\Segger\JLinkDevices.ref (0099ms, 0119ms total)
T21C10 000:020 REF file references invalid XML file: F:\tools\jlink\JLinkDevices.xml (0100ms, 0120ms total)
T21C10 000:020   returns 0x00 (0100ms, 0120ms total)
T21C10 000:120 JLINK_ExecCommand("Device = STM32F427IIHx", ...). Device "STM32F427II" selected.  returns 0x00 (0002ms, 0122ms total)
T21C10 000:122 JLINK_ExecCommand("DisableConnectionTimeout", ...).   returns 0x01 (0000ms, 0122ms total)
T21C10 000:122 JLINK_GetHardwareVersion()  returns 0x17AE8 (0000ms, 0122ms total)
T21C10 000:122 JLINK_GetDLLVersion()  returns 63203 (0000ms, 0122ms total)
T21C10 000:122 JLINK_GetFirmwareString(...) (0000ms, 0122ms total)
T21C10 000:122 JLINK_GetDLLVersion()  returns 63203 (0000ms, 0122ms total)
T21C10 000:122 JLINK_GetCompileDateTime() (0000ms, 0122ms total)
T21C10 000:122 JLINK_GetFirmwareString(...) (0000ms, 0122ms total)
T21C10 000:122 JLINK_GetHardwareVersion()  returns 0x17AE8 (0000ms, 0122ms total)
T21C10 000:122 JLINK_TIF_Select(JLINKARM_TIF_SWD)  returns 0x00 (0001ms, 0123ms total)
T21C10 000:123 JLINK_SetSpeed(5000) (0000ms, 0123ms total)
T21C10 000:123 JLINK_GetId() >0x10B TIF>Found SW-DP with ID 0x2BA01477 >0x0D TIF> >0x28 TIF> >0x0D TIF> >0x28 TIF> >0x0D TIF> >0x28 TIF> >0x0D TIF> >0x28 TIF> >0x0D TIF> >0x21 TIF> >0x0D TIF> >0x28 TIF> >0x0D TIF> >0x28 TIF> >0x0D TIF> >0x28 TIF> >0x0D TIF> >0x21 TIF> >0x0D TIF> >0x21 TIF> >0x0D TIF> >0x28 TIF> >0x0D TIF> >0x21 TIF> >0x0D TIF> >0x21 TIF> >0x0D TIF> >0x28 TIF> >0x0D TIF> >0x21 TIF> >0x0D TIF> >0x21 TIF> >0x0D TIF> >0x28 TIF> >0x0D TIF> >0x21 TIF> >0x0D TIF> >0x21 TIF> >0x0D TIF>
 >0x28 TIF> >0x0D TIF> >0x21 TIF> >0x0D TIF> >0x21 TIF> >0x0D TIF> >0x28 TIF> >0x0D TIF> >0x21 TIF> >0x0D TIF> >0x21 TIF> >0x0D TIF> >0x28 TIF> >0x0D TIF> >0x21 TIF> >0x0D TIF> >0x21 TIF> >0x10B TIF>Found SW-DP with ID 0x2BA01477 >0x0D TIF> >0x28 TIF> >0x0D TIF> >0x28 TIF> >0x0D TIF> >0x28 TIF> >0x0D TIF> >0x28 TIF> >0x0D TIF> >0x21 TIF> >0x0D TIF> >0x28 TIF>Scanning AP map to find all available APs >0x0D TIF> >0x28 TIF> >0x0D TIF> >0x21 TIF> >0x0D TIF> >0x21 TIF> >0x0D TIF> >0x28 TIF> >0x0D TIF>
 >0x21 TIF> >0x0D TIF> >0x21 TIF>AP[1]: Stopped AP scan as end of AP map has been reachedAP[0]: AHB-AP (IDR: 0x24770011)Iterating through AP map to find AHB-AP to use >0x42 TIF> >0x28 TIF> >0x0D TIF> >0x28 TIF> >0x0D TIF> >0x21 TIF> >0x0D TIF> >0x21 TIF> >0x42 TIF> >0x28 TIF> >0x0D TIF> >0x28 TIF> >0x0D TIF> >0x28 TIF> >0x0D TIF> >0x21 TIF> >0x0D TIF> >0x21 TIF>AP[0]: Core foundAP[0]: AHB-AP ROM base: 0xE00FF000 >0x0D TIF> >0x28 TIF> >0x0D TIF> >0x28 TIF> >0x0D TIF> >0x28 TIF> >0x0D TIF> >0x21 TIF>
 >0x0D TIF> >0x21 TIF>CPUID register: 0x410FC241. Implementer code: 0x41 (ARM)Found Cortex-M4 r0p1, Little endian. -- CPU_ReadMem(4 bytes @ 0xE000EDF0) -- CPU_WriteMem(4 bytes @ 0xE000EDF0) -- CPU_ReadMem(4 bytes @ 0xE0002000)FPUnit: 6 code (BP) slots and 2 literal slots -- CPU_ReadMem(4 bytes @ 0xE000EDFC) -- CPU_WriteMem(4 bytes @ 0xE000EDFC) -- CPU_ReadMem(4 bytes @ 0xE0001000) -- CPU_WriteMem(4 bytes @ 0xE0001000) -- CPU_ReadMem(4 bytes @ 0xE000ED88) -- CPU_WriteMem(4 bytes @ 0xE000ED88)
 -- CPU_ReadMem(4 bytes @ 0xE000ED88) -- CPU_WriteMem(4 bytes @ 0xE000ED88)CoreSight components:ROMTbl[0] @ E00FF000 -- CPU_ReadMem(16 bytes @ 0xE00FF000) -- CPU_ReadMem(16 bytes @ 0xE000EFF0) -- CPU_ReadMem(16 bytes @ 0xE000EFE0)ROMTbl[0][0]: E000E000, CID: B105E00D, PID: 000BB00C SCS-M7 -- CPU_ReadMem(16 bytes @ 0xE0001FF0) -- CPU_ReadMem(16 bytes @ 0xE0001FE0)ROMTbl[0][1]: E0001000, CID: B105E00D, PID: 003BB002 DWT -- CPU_ReadMem(16 bytes @ 0xE0002FF0) -- CPU_ReadMem(16 bytes @ 0xE0002FE0)
ROMTbl[0][2]: E0002000, CID: B105E00D, PID: 002BB003 FPB -- CPU_ReadMem(16 bytes @ 0xE0000FF0) -- CPU_ReadMem(16 bytes @ 0xE0000FE0)ROMTbl[0][3]: E0000000, CID: B105E00D, PID: 003BB001 ITM -- CPU_ReadMem(16 bytes @ 0xE00FF010) -- CPU_ReadMem(16 bytes @ 0xE0040FF0) -- CPU_ReadMem(16 bytes @ 0xE0040FE0)ROMTbl[0][4]: E0040000, CID: B105900D, PID: 000BB9A1 TPIU -- CPU_ReadMem(16 bytes @ 0xE0041FF0) -- CPU_ReadMem(16 bytes @ 0xE0041FE0)ROMTbl[0][5]: E0041000, CID: B105900D, PID: 000BB925 ETM >0x0D TIF>
 >0x21 TIF>  returns 0x2BA01477 (0129ms, 0252ms total)
T21C10 000:252 JLINK_GetDLLVersion()  returns 63203 (0000ms, 0252ms total)
T21C10 000:252 JLINK_CORE_GetFound()  returns 0xE0000FF (0000ms, 0252ms total)
T21C10 000:252 JLINK_GetDebugInfo(0x100 = JLINKARM_ROM_TABLE_ADDR_INDEX) -- Value=0xE00FF000  returns 0x00 (0000ms, 0252ms total)
T21C10 000:252 JLINK_GetDebugInfo(0x100 = JLINKARM_ROM_TABLE_ADDR_INDEX) -- Value=0xE00FF000  returns 0x00 (0000ms, 0252ms total)
T21C10 000:252 JLINK_GetDebugInfo(0x101 = JLINKARM_DEBUG_INFO_ETM_ADDR_INDEX) -- Value=0xE0041000  returns 0x00 (0000ms, 0252ms total)
T21C10 000:252 JLINK_ReadMemEx(0xE0041FD0, 0x0020 Bytes, ..., Flags = 0x02000004) -- CPU_ReadMem(32 bytes @ 0xE0041FD0) - Data: 04 00 00 00 00 00 00 00 00 00 00 00 00 00 00 00 ...  returns 0x20 (0001ms, 0253ms total)
T21C10 000:253 JLINK_GetDebugInfo(0x102 = JLINKARM_DEBUG_INFO_MTB_ADDR_INDEX) -- Value=0x00000000  returns 0x00 (0000ms, 0253ms total)
T21C10 000:253 JLINK_GetDebugInfo(0x103 = JLINKARM_DEBUG_INFO_TPIU_ADDR_INDEX) -- Value=0xE0040000  returns 0x00 (0000ms, 0253ms total)
T21C10 000:253 JLINK_GetDebugInfo(0x104 = JLINKARM_DEBUG_INFO_ITM_ADDR_INDEX) -- Value=0xE0000000  returns 0x00 (0000ms, 0253ms total)
T21C10 000:253 JLINK_GetDebugInfo(0x105 = JLINKARM_DEBUG_INFO_DWT_ADDR_INDEX) -- Value=0xE0001000  returns 0x00 (0000ms, 0253ms total)
T21C10 000:253 JLINK_GetDebugInfo(0x106 = JLINKARM_DEBUG_INFO_FPB_ADDR_INDEX) -- Value=0xE0002000  returns 0x00 (0000ms, 0253ms total)
T21C10 000:253 JLINK_GetDebugInfo(0x107 = JLINKARM_DEBUG_INFO_NVIC_ADDR_INDEX) -- Value=0xE000E000  returns 0x00 (0000ms, 0253ms total)
T21C10 000:253 JLINK_GetDebugInfo(0x10C = JLINKARM_DEBUG_INFO_DBG_ADDR_INDEX) -- Value=0xE000EDF0  returns 0x00 (0000ms, 0253ms total)
T21C10 000:253 JLINK_ReadMemU32(0xE000EF40, 0x0001 Items, ...) -- CPU_ReadMem(4 bytes @ 0xE000EF40) - Data: 21 00 11 10  returns 0x01 (0000ms, 0253ms total)
T21C10 000:253 JLINK_ReadMemU32(0xE000EF44, 0x0001 Items, ...) -- CPU_ReadMem(4 bytes @ 0xE000EF44) - Data: 11 00 00 11  returns 0x01 (0001ms, 0254ms total)
T21C10 000:254 JLINK_ReadMemU32(0xE000ED00, 0x0001 Items, ...) -- CPU_ReadMem(4 bytes @ 0xE000ED00) - Data: 41 C2 0F 41  returns 0x01 (0000ms, 0254ms total)
T21C10 000:254 JLINK_GetDebugInfo(0x10F = JLINKARM_DEBUG_INFO_HAS_CORTEX_M_SECURITY_EXT_INDEX) -- Value=0x00000000  returns 0x00 (0000ms, 0254ms total)
T21C10 000:254 JLINK_SetResetType(JLINKARM_CM3_RESET_TYPE_NORMAL)  returns JLINKARM_CM3_RESET_TYPE_NORMAL (0000ms, 0254ms total)
T21C10 000:254 JLINK_Reset() -- CPU is running -- CPU_WriteMem(4 bytes @ 0xE000EDF0) -- CPU is running -- CPU_WriteMem(4 bytes @ 0xE000EDFC)Reset: Halt core after reset via DEMCR.VC_CORERESET. >0x35 TIF>Reset: Reset device via AIRCR.SYSRESETREQ. -- CPU is running -- CPU_WriteMem(4 bytes @ 0xE000ED0C) >0x0D TIF> >0x28 TIF> -- CPU_ReadMem(4 bytes @ 0xE000EDF0) -- CPU_ReadMem(4 bytes @ 0xE000EDF0) -- CPU is running -- CPU_WriteMem(4 bytes @ 0xE000EDF0) -- CPU is running -- CPU_WriteMem(4 bytes @ 0xE000EDFC)
 -- CPU_ReadMem(4 bytes @ 0xE000EDF0) -- CPU_WriteMem(4 bytes @ 0xE0002000) -- CPU_ReadMem(4 bytes @ 0xE000EDFC) -- CPU_ReadMem(4 bytes @ 0xE0001000) (0066ms, 0320ms total)
T21C10 000:320 JLINK_ReadReg(R15 (PC))  returns 0x08000308 (0000ms, 0320ms total)
T21C10 000:320 JLINK_ReadReg(XPSR)  returns 0x01000000 (0000ms, 0320ms total)
T21C10 000:320 JLINK_Halt()  returns 0x00 (0000ms, 0320ms total)
T21C10 000:320 JLINK_ReadMemU32(0xE000EDF0, 0x0001 Items, ...) -- CPU_ReadMem(4 bytes @ 0xE000EDF0) - Data: 03 00 03 00  returns 0x01 (0001ms, 0321ms total)
T21C10 000:321 JLINK_WriteU32(0xE000EDF0, 0xA05F0003) -- CPU_WriteMem(4 bytes @ 0xE000EDF0)  returns 0x00 (0000ms, 0321ms total)
T21C10 000:321 JLINK_WriteU32(0xE000EDFC, 0x01000000) -- CPU_WriteMem(4 bytes @ 0xE000EDFC)  returns 0x00 (0001ms, 0322ms total)
T21C10 000:322 JLINK_GetHWStatus(...)  returns 0x00 (0000ms, 0322ms total)
T21C10 000:323 JLINK_GetNumBPUnits(Type = 0xFFFFFF00)  returns 0x06 (0000ms, 0322ms total)
T21C10 000:323 JLINK_GetNumBPUnits(Type = 0xF0)  returns 0x2000 (0000ms, 0322ms total)
T21C10 000:323 JLINK_GetNumWPUnits()  returns 0x04 (0000ms, 0322ms total)
T21C10 000:323 JLINK_GetSpeed()  returns 0xFA0 (0000ms, 0322ms total)
T21C10 000:323 JLINK_ReadMemU32(0xE000E004, 0x0001 Items, ...) -- CPU_ReadMem(4 bytes @ 0xE000E004) - Data: 02 00 00 00  returns 0x01 (0000ms, 0322ms total)
T21C10 000:323 JLINK_ReadMemU32(0xE000E004, 0x0001 Items, ...) -- CPU_ReadMem(4 bytes @ 0xE000E004) - Data: 02 00 00 00  returns 0x01 (0001ms, 0323ms total)
T21C10 000:324 JLINK_WriteMemEx(0xE0001000, 0x001C Bytes, ..., Flags = 0x02000004) - Data: 01 00 00 00 00 00 00 00 00 00 00 00 00 00 00 00 ... -- CPU_WriteMem(28 bytes @ 0xE0001000)  returns 0x1C (0001ms, 0324ms total)
T21C10 000:325 JLINK_ReadReg(R15 (PC))  returns 0x08000308 (0000ms, 0324ms total)
T21C10 000:325 JLINK_ReadReg(XPSR)  returns 0x01000000 (0000ms, 0324ms total)
T21C10 000:446 JLINK_SetResetType(JLINKARM_CM3_RESET_TYPE_NORMAL)  returns JLINKARM_CM3_RESET_TYPE_NORMAL (0000ms, 0324ms total)
T21C10 000:446 JLINK_Reset() -- CPU_WriteMem(4 bytes @ 0xE000EDF0) -- CPU_WriteMem(4 bytes @ 0xE000EDFC)Reset: Halt core after reset via DEMCR.VC_CORERESET. >0x35 TIF>Reset: Reset device via AIRCR.SYSRESETREQ. -- CPU_WriteMem(4 bytes @ 0xE000ED0C) >0x0D TIF> >0x28 TIF> -- CPU_ReadMem(4 bytes @ 0xE000EDF0) -- CPU_ReadMem(4 bytes @ 0xE000EDF0) -- CPU_WriteMem(4 bytes @ 0xE000EDF0) -- CPU_WriteMem(4 bytes @ 0xE000EDFC) -- CPU_ReadMem(4 bytes @ 0xE000EDF0) -- CPU_WriteMem(4 bytes @ 0xE0002000)
 -- CPU_ReadMem(4 bytes @ 0xE000EDFC) -- CPU_ReadMem(4 bytes @ 0xE0001000) (0065ms, 0389ms total)
T21C10 000:511 JLINK_ReadReg(R15 (PC))  returns 0x08000308 (0000ms, 0389ms total)
T21C10 000:511 JLINK_ReadReg(XPSR)  returns 0x01000000 (0000ms, 0389ms total)
T21C10 000:513 JLINK_ReadMemEx(0x08000308, 0x003C Bytes, ..., Flags = 0x02000000) -- CPU_ReadMem(128 bytes @ 0x08000300) -- Updating C cache (128 bytes @ 0x08000300) -- Read from C cache (60 bytes @ 0x08000308) - Data: 09 48 80 47 09 48 00 47 FE E7 FE E7 FE E7 FE E7 ...  returns 0x3C (0001ms, 0390ms total)
T21C10 004:516 JLINK_ReadReg(R0)  returns 0x00000000 (0000ms, 0390ms total)
T21C10 004:516 JLINK_ReadReg(R1)  returns 0x00000000 (0000ms, 0390ms total)
T21C10 004:516 JLINK_ReadReg(R2)  returns 0x00000000 (0000ms, 0390ms total)
T21C10 004:516 JLINK_ReadReg(R3)  returns 0x00000000 (0000ms, 0390ms total)
T21C10 004:516 JLINK_ReadReg(R4)  returns 0x00000000 (0000ms, 0390ms total)
T21C10 004:516 JLINK_ReadReg(R5)  returns 0x00000000 (0000ms, 0390ms total)
T21C10 004:516 JLINK_ReadReg(R6)  returns 0x00000000 (0000ms, 0390ms total)
T21C10 004:516 JLINK_ReadReg(R7)  returns 0x00000000 (0000ms, 0390ms total)
T21C10 004:516 JLINK_ReadReg(R8)  returns 0x00000000 (0000ms, 0390ms total)
T21C10 004:516 JLINK_ReadReg(R9)  returns 0x00000000 (0000ms, 0390ms total)
T21C10 004:516 JLINK_ReadReg(R10)  returns 0x00000000 (0000ms, 0390ms total)
T21C10 004:516 JLINK_ReadReg(R11)  returns 0x00000000 (0000ms, 0390ms total)
T21C10 004:516 JLINK_ReadReg(R12)  returns 0x00000000 (0000ms, 0390ms total)
T21C10 004:516 JLINK_ReadReg(R13 (SP))  returns 0x200045C0 (0000ms, 0390ms total)
T21C10 004:516 JLINK_ReadReg(R14)  returns 0xFFFFFFFF (0000ms, 0390ms total)
T21C10 004:516 JLINK_ReadReg(R15 (PC))  returns 0x08000308 (0000ms, 0390ms total)
T21C10 004:516 JLINK_ReadReg(XPSR)  returns 0x01000000 (0000ms, 0390ms total)
T21C10 004:516 JLINK_ReadReg(MSP)  returns 0x200045C0 (0000ms, 0390ms total)
T21C10 004:516 JLINK_ReadReg(PSP)  returns 0x00000000 (0000ms, 0390ms total)
T21C10 004:516 JLINK_ReadReg(CFBP)  returns 0x00000000 (0000ms, 0390ms total)
T21C10 004:516 JLINK_ReadReg(FPSCR)  returns 0x00000000 (0004ms, 0394ms total)
T21C10 004:520 JLINK_ReadReg(FPS0)  returns 0x00000000 (0000ms, 0394ms total)
T21C10 004:520 JLINK_ReadReg(FPS1)  returns 0x00000000 (0000ms, 0394ms total)
T21C10 004:520 JLINK_ReadReg(FPS2)  returns 0x00000000 (0000ms, 0394ms total)
T21C10 004:520 JLINK_ReadReg(FPS3)  returns 0x00000000 (0000ms, 0394ms total)
T21C10 004:520 JLINK_ReadReg(FPS4)  returns 0x00000000 (0000ms, 0394ms total)
T21C10 004:520 JLINK_ReadReg(FPS5)  returns 0x00000000 (0000ms, 0394ms total)
T21C10 004:520 JLINK_ReadReg(FPS6)  returns 0x00000000 (0000ms, 0394ms total)
T21C10 004:520 JLINK_ReadReg(FPS7)  returns 0x00000000 (0000ms, 0394ms total)
T21C10 004:520 JLINK_ReadReg(FPS8)  returns 0x00000000 (0000ms, 0394ms total)
T21C10 004:520 JLINK_ReadReg(FPS9)  returns 0x00000000 (0000ms, 0394ms total)
T21C10 004:520 JLINK_ReadReg(FPS10)  returns 0x00000000 (0000ms, 0394ms total)
T21C10 004:520 JLINK_ReadReg(FPS11)  returns 0x00000000 (0000ms, 0394ms total)
T21C10 004:520 JLINK_ReadReg(FPS12)  returns 0x00000000 (0000ms, 0394ms total)
T21C10 004:520 JLINK_ReadReg(FPS13)  returns 0x00000000 (0000ms, 0394ms total)
T21C10 004:520 JLINK_ReadReg(FPS14)  returns 0x00000000 (0000ms, 0394ms total)
T21C10 004:520 JLINK_ReadReg(FPS15)  returns 0x00000000 (0000ms, 0394ms total)
T21C10 004:520 JLINK_ReadReg(FPS16)  returns 0x00000000 (0000ms, 0394ms total)
T21C10 004:520 JLINK_ReadReg(FPS17)  returns 0x00000000 (0000ms, 0394ms total)
T21C10 004:520 JLINK_ReadReg(FPS18)  returns 0x00000000 (0000ms, 0394ms total)
T21C10 004:520 JLINK_ReadReg(FPS19)  returns 0x00000000 (0000ms, 0394ms total)
T21C10 004:520 JLINK_ReadReg(FPS20)  returns 0x00000000 (0000ms, 0394ms total)
T21C10 004:520 JLINK_ReadReg(FPS21)  returns 0x00000000 (0000ms, 0394ms total)
T21C10 004:520 JLINK_ReadReg(FPS22)  returns 0x00000000 (0000ms, 0394ms total)
T21C10 004:520 JLINK_ReadReg(FPS23)  returns 0x00000000 (0000ms, 0394ms total)
T21C10 004:520 JLINK_ReadReg(FPS24)  returns 0x00000000 (0000ms, 0394ms total)
T21C10 004:520 JLINK_ReadReg(FPS25)  returns 0x00000000 (0000ms, 0394ms total)
T21C10 004:520 JLINK_ReadReg(FPS26)  returns 0x00000000 (0000ms, 0394ms total)
T21C10 004:520 JLINK_ReadReg(FPS27)  returns 0x00000000 (0000ms, 0394ms total)
T21C10 004:520 JLINK_ReadReg(FPS28)  returns 0x00000000 (0000ms, 0394ms total)
T21C10 004:520 JLINK_ReadReg(FPS29)  returns 0x00000000 (0000ms, 0394ms total)
T21C10 004:520 JLINK_ReadReg(FPS30)  returns 0x00000000 (0000ms, 0394ms total)
T21C10 004:520 JLINK_ReadReg(FPS31)  returns 0x00000000 (0000ms, 0394ms total)
T21C10 004:563 JLINK_ReadMemEx(0x20000074, 0x0008 Bytes, ..., Flags = 0x02000000) -- CPU_ReadMem(64 bytes @ 0x20000040) -- Updating C cache (64 bytes @ 0x20000040) -- Read from C cache (8 bytes @ 0x20000074) - Data: 00 00 00 00 00 00 00 00  returns 0x08 (0000ms, 0394ms total)
T22944 004:658 JLINK_ReadMemEx(0x08000308, 0x0002 Bytes, ..., Flags = 0x02000000) -- Read from C cache (2 bytes @ 0x08000308) - Data: 09 48  returns 0x02 (0000ms, 0394ms total)
T22944 004:658 JLINK_SetBPEx(Addr = 0x08004EC0, Type = 0xFFFFFFF2)  returns 0x00000001 (0000ms, 0394ms total)
T22944 004:658 JLINK_Go() -- CPU_WriteMem(4 bytes @ 0xE0002000) -- CPU_ReadMem(4 bytes @ 0xE0001000) -- CPU_WriteMem(4 bytes @ 0xE0002008) -- CPU_WriteMem(4 bytes @ 0xE000200C) -- CPU_WriteMem(4 bytes @ 0xE0002010) -- CPU_WriteMem(4 bytes @ 0xE0002014) -- CPU_WriteMem(4 bytes @ 0xE0002018) -- CPU_WriteMem(4 bytes @ 0xE000201C) -- CPU_WriteMem(4 bytes @ 0xE0001004) (0002ms, 0396ms total)
T22944 004:761 JLINK_IsHalted()  returns TRUE (0001ms, 0397ms total)
T22944 004:762 JLINK_Halt()  returns 0x00 (0000ms, 0396ms total)
T22944 004:762 JLINK_IsHalted()  returns TRUE (0000ms, 0396ms total)
T22944 004:762 JLINK_IsHalted()  returns TRUE (0001ms, 0397ms total)
T22944 004:763 JLINK_IsHalted()  returns TRUE (0000ms, 0396ms total)
T22944 004:763 JLINK_ReadReg(R15 (PC))  returns 0x0800169A (0000ms, 0396ms total)
T22944 004:763 JLINK_ReadReg(XPSR)  returns 0x01000000 (0000ms, 0396ms total)
T22944 004:763 JLINK_ClrBPEx(BPHandle = 0x00000001)  returns 0x00 (0000ms, 0396ms total)
T22944 004:763 JLINK_ReadMemU32(0xE000ED30, 0x0001 Items, ...) -- CPU_ReadMem(4 bytes @ 0xE000ED30) - Data: 02 00 00 00  returns 0x01 (0000ms, 0396ms total)
T22944 004:763 JLINK_ReadMemU32(0xE0001028, 0x0001 Items, ...) -- CPU_ReadMem(4 bytes @ 0xE0001028) - Data: 00 00 00 00  returns 0x01 (0001ms, 0397ms total)
T22944 004:764 JLINK_ReadMemU32(0xE0001038, 0x0001 Items, ...) -- CPU_ReadMem(4 bytes @ 0xE0001038) - Data: 00 02 00 00  returns 0x01 (0000ms, 0397ms total)
T22944 004:764 JLINK_ReadMemU32(0xE0001048, 0x0001 Items, ...) -- CPU_ReadMem(4 bytes @ 0xE0001048) - Data: 00 00 00 00  returns 0x01 (0000ms, 0397ms total)
T22944 004:764 JLINK_ReadMemU32(0xE0001058, 0x0001 Items, ...) -- CPU_ReadMem(4 bytes @ 0xE0001058) - Data: 00 00 00 00  returns 0x01 (0001ms, 0398ms total)
T22944 004:765 JLINK_ReadReg(R0)  returns 0x00000015 (0000ms, 0398ms total)
T22944 004:765 JLINK_ReadReg(R1)  returns 0x20004570 (0000ms, 0398ms total)
T22944 004:765 JLINK_ReadReg(R2)  returns 0x2000458C (0000ms, 0398ms total)
T22944 004:765 JLINK_ReadReg(R3)  returns 0x00004000 (0000ms, 0398ms total)
T22944 004:765 JLINK_ReadReg(R4)  returns 0x200001C0 (0000ms, 0398ms total)
T22944 004:765 JLINK_ReadReg(R5)  returns 0x20000010 (0000ms, 0398ms total)
T22944 004:765 JLINK_ReadReg(R6)  returns 0x00000000 (0000ms, 0398ms total)
T22944 004:765 JLINK_ReadReg(R7)  returns 0x00000000 (0000ms, 0398ms total)
T22944 004:765 JLINK_ReadReg(R8)  returns 0x200001C0 (0000ms, 0398ms total)
T22944 004:765 JLINK_ReadReg(R9)  returns 0x00000000 (0000ms, 0398ms total)
T22944 004:765 JLINK_ReadReg(R10)  returns 0x00000000 (0000ms, 0398ms total)
T22944 004:765 JLINK_ReadReg(R11)  returns 0x00000000 (0000ms, 0398ms total)
T22944 004:765 JLINK_ReadReg(R12)  returns 0x20000050 (0000ms, 0398ms total)
T22944 004:765 JLINK_ReadReg(R13 (SP))  returns 0x20004570 (0000ms, 0398ms total)
T22944 004:765 JLINK_ReadReg(R14)  returns 0x080015AF (0000ms, 0398ms total)
T22944 004:765 JLINK_ReadReg(R15 (PC))  returns 0x0800169A (0000ms, 0398ms total)
T22944 004:765 JLINK_ReadReg(XPSR)  returns 0x01000000 (0000ms, 0398ms total)
T22944 004:765 JLINK_ReadReg(MSP)  returns 0x20004570 (0000ms, 0398ms total)
T22944 004:765 JLINK_ReadReg(PSP)  returns 0x00000000 (0000ms, 0398ms total)
T22944 004:765 JLINK_ReadReg(CFBP)  returns 0x04000000 (0000ms, 0398ms total)
T22944 004:765 JLINK_ReadReg(FPSCR)  returns 0x03000000 (0003ms, 0401ms total)
T22944 004:768 JLINK_ReadReg(FPS0)  returns 0x00000000 (0000ms, 0401ms total)
T22944 004:768 JLINK_ReadReg(FPS1)  returns 0x00000000 (0000ms, 0401ms total)
T22944 004:768 JLINK_ReadReg(FPS2)  returns 0x00000000 (0000ms, 0401ms total)
T22944 004:768 JLINK_ReadReg(FPS3)  returns 0x00000000 (0000ms, 0401ms total)
T22944 004:768 JLINK_ReadReg(FPS4)  returns 0x00000000 (0000ms, 0401ms total)
T22944 004:768 JLINK_ReadReg(FPS5)  returns 0x00000000 (0000ms, 0401ms total)
T22944 004:768 JLINK_ReadReg(FPS6)  returns 0x00000000 (0000ms, 0401ms total)
T22944 004:768 JLINK_ReadReg(FPS7)  returns 0x00000000 (0000ms, 0401ms total)
T22944 004:768 JLINK_ReadReg(FPS8)  returns 0x00000000 (0000ms, 0401ms total)
T22944 004:768 JLINK_ReadReg(FPS9)  returns 0x00000000 (0000ms, 0401ms total)
T22944 004:768 JLINK_ReadReg(FPS10)  returns 0x00000000 (0000ms, 0401ms total)
T22944 004:768 JLINK_ReadReg(FPS11)  returns 0x00000000 (0000ms, 0401ms total)
T22944 004:768 JLINK_ReadReg(FPS12)  returns 0x00000000 (0000ms, 0401ms total)
T22944 004:768 JLINK_ReadReg(FPS13)  returns 0x00000000 (0000ms, 0401ms total)
T22944 004:768 JLINK_ReadReg(FPS14)  returns 0x00000000 (0000ms, 0401ms total)
T22944 004:768 JLINK_ReadReg(FPS15)  returns 0x00000000 (0000ms, 0401ms total)
T22944 004:768 JLINK_ReadReg(FPS16)  returns 0x00000000 (0000ms, 0401ms total)
T22944 004:768 JLINK_ReadReg(FPS17)  returns 0x00000000 (0000ms, 0401ms total)
T22944 004:768 JLINK_ReadReg(FPS18)  returns 0x00000000 (0000ms, 0401ms total)
T22944 004:769 JLINK_ReadReg(FPS19)  returns 0x00000000 (0000ms, 0401ms total)
T22944 004:769 JLINK_ReadReg(FPS20)  returns 0x00000000 (0000ms, 0401ms total)
T22944 004:769 JLINK_ReadReg(FPS21)  returns 0x00000000 (0000ms, 0401ms total)
T22944 004:769 JLINK_ReadReg(FPS22)  returns 0x00000000 (0000ms, 0401ms total)
T22944 004:769 JLINK_ReadReg(FPS23)  returns 0x00000000 (0000ms, 0401ms total)
T22944 004:769 JLINK_ReadReg(FPS24)  returns 0x00000000 (0000ms, 0401ms total)
T22944 004:769 JLINK_ReadReg(FPS25)  returns 0x00000000 (0000ms, 0401ms total)
T22944 004:769 JLINK_ReadReg(FPS26)  returns 0x00000000 (0000ms, 0401ms total)
T22944 004:769 JLINK_ReadReg(FPS27)  returns 0x00000000 (0000ms, 0401ms total)
T22944 004:769 JLINK_ReadReg(FPS28)  returns 0x00000000 (0000ms, 0401ms total)
T22944 004:769 JLINK_ReadReg(FPS29)  returns 0x00000000 (0000ms, 0401ms total)
T22944 004:769 JLINK_ReadReg(FPS30)  returns 0x00000000 (0000ms, 0401ms total)
T22944 004:769 JLINK_ReadReg(FPS31)  returns 0x00000000 (0000ms, 0401ms total)
T21C10 004:769 JLINK_ReadMemEx(0x2000457C, 0x0004 Bytes, ..., Flags = 0x02000000) -- CPU_ReadMem(64 bytes @ 0x20004540) -- Updating C cache (64 bytes @ 0x20004540) -- Read from C cache (4 bytes @ 0x2000457C) - Data: AF 15 00 08  returns 0x04 (0001ms, 0402ms total)
T21C10 004:770 JLINK_ReadMemEx(0x20004578, 0x0004 Bytes, ..., Flags = 0x02000000) -- Read from C cache (4 bytes @ 0x20004578) - Data: 00 01 00 00  returns 0x04 (0000ms, 0402ms total)
T21C10 004:770 JLINK_ReadMemEx(0x200045B4, 0x0004 Bytes, ..., Flags = 0x02000000) -- CPU_ReadMem(64 bytes @ 0x20004580) -- Updating C cache (64 bytes @ 0x20004580) -- Read from C cache (4 bytes @ 0x200045B4) - Data: D9 02 00 08  returns 0x04 (0000ms, 0402ms total)
T21C10 004:770 JLINK_ReadMemEx(0x20004594, 0x0004 Bytes, ..., Flags = 0x02000000) -- Read from C cache (4 bytes @ 0x20004594) - Data: 30 00 00 20  returns 0x04 (0000ms, 0402ms total)
T21C10 004:770 JLINK_ReadMemEx(0x20004598, 0x0004 Bytes, ..., Flags = 0x02000000) -- Read from C cache (4 bytes @ 0x20004598) - Data: 10 00 00 20  returns 0x04 (0000ms, 0402ms total)
T21C10 004:770 JLINK_ReadMemEx(0x2000459C, 0x0004 Bytes, ..., Flags = 0x02000000) -- Read from C cache (4 bytes @ 0x2000459C) - Data: 00 00 00 00  returns 0x04 (0000ms, 0402ms total)
T21C10 004:770 JLINK_ReadMemEx(0x200045A0, 0x0004 Bytes, ..., Flags = 0x02000000) -- Read from C cache (4 bytes @ 0x200045A0) - Data: 00 00 00 00  returns 0x04 (0000ms, 0402ms total)
T21C10 004:770 JLINK_ReadMemEx(0x200045A4, 0x0004 Bytes, ..., Flags = 0x02000000) -- Read from C cache (4 bytes @ 0x200045A4) - Data: 00 00 00 00  returns 0x04 (0000ms, 0402ms total)
T21C10 004:771 JLINK_ReadMemEx(0x200045A8, 0x0004 Bytes, ..., Flags = 0x02000000) -- Read from C cache (4 bytes @ 0x200045A8) - Data: 00 00 00 00  returns 0x04 (0000ms, 0403ms total)
T21C10 004:771 JLINK_ReadMemEx(0x200045AC, 0x0004 Bytes, ..., Flags = 0x02000000) -- Read from C cache (4 bytes @ 0x200045AC) - Data: C4 58 00 08  returns 0x04 (0000ms, 0403ms total)
T21C10 004:771 JLINK_ReadMemEx(0x200045B0, 0x0004 Bytes, ..., Flags = 0x02000000) -- Read from C cache (4 bytes @ 0x200045B0) - Data: 00 00 00 00  returns 0x04 (0000ms, 0403ms total)
T21C10 004:775 JLINK_ReadMemU32(0xE0001004, 0x0001 Items, ...) -- CPU_ReadMem(4 bytes @ 0xE0001004) - Data: FA 23 00 00  returns 0x01 (0001ms, 0404ms total)
T21C10 004:776 JLINK_ReadMemEx(0x20000074, 0x0008 Bytes, ..., Flags = 0x02000000) -- CPU_ReadMem(64 bytes @ 0x20000040) -- Updating C cache (64 bytes @ 0x20000040) -- Read from C cache (8 bytes @ 0x20000074) - Data: 00 00 00 00 00 00 00 00  returns 0x08 (0000ms, 0404ms total)
T21C10 004:781 JLINK_ReadMemEx(0x0800169A, 0x0002 Bytes, ..., Flags = 0x02000000) -- CPU_ReadMem(64 bytes @ 0x08001680) -- Updating C cache (64 bytes @ 0x08001680) -- Read from C cache (2 bytes @ 0x0800169A) - Data: AB BE  returns 0x02 (0001ms, 0405ms total)
T21C10 004:782 JLINK_ReadMemEx(0x0800169C, 0x003C Bytes, ..., Flags = 0x02000000) -- CPU_ReadMem(64 bytes @ 0x080016C0) -- Updating C cache (64 bytes @ 0x080016C0) -- Read from C cache (60 bytes @ 0x0800169C) - Data: 08 B1 00 20 1C BD 20 46 1C BD 00 00 00 48 70 47 ...  returns 0x3C (0000ms, 0405ms total)
T21C10 006:552 JLINK_ReadMemEx(0x08004BA4, 0x003C Bytes, ..., Flags = 0x02000000) -- CPU_ReadMem(128 bytes @ 0x08004B80) -- Updating C cache (128 bytes @ 0x08004B80) -- Read from C cache (60 bytes @ 0x08004BA4) - Data: BD F8 32 10 09 0A D0 F8 10 C0 90 F8 14 E0 AE F1 ...  returns 0x3C (0001ms, 0406ms total)
T21C10 007:155 JLINK_ReadMemEx(0x08004EF4, 0x003C Bytes, ..., Flags = 0x02000000) -- CPU_ReadMem(128 bytes @ 0x08004EC0) -- Updating C cache (128 bytes @ 0x08004EC0) -- Read from C cache (60 bytes @ 0x08004EF4) - Data: EE 46 01 20 CE F8 00 00 40 F2 5C 10 C2 F2 00 00 ...  returns 0x3C (0001ms, 0407ms total)
T21C10 010:933 JLINK_ReadMemEx(0x2000017C, 0x0004 Bytes, ..., Flags = 0x02000000) -- CPU_ReadMem(64 bytes @ 0x20000140) -- Updating C cache (64 bytes @ 0x20000140) -- Read from C cache (4 bytes @ 0x2000017C) - Data: 00 00 00 00  returns 0x04 (0001ms, 0408ms total)
T21C10 010:934 JLINK_ReadMemEx(0x20000180, 0x0004 Bytes, ..., Flags = 0x02000000) -- CPU_ReadMem(64 bytes @ 0x20000180) -- Updating C cache (64 bytes @ 0x20000180) -- Read from C cache (4 bytes @ 0x20000180) - Data: 00 00 00 00  returns 0x04 (0001ms, 0409ms total)
T21C10 010:935 JLINK_ReadMemEx(0x20000184, 0x0004 Bytes, ..., Flags = 0x02000000) -- Read from C cache (4 bytes @ 0x20000184) - Data: 00 00 00 00  returns 0x04 (0000ms, 0409ms total)
T21C10 015:721 JLINK_SetResetType(JLINKARM_CM3_RESET_TYPE_NORMAL)  returns JLINKARM_CM3_RESET_TYPE_NORMAL (0000ms, 0409ms total)
T21C10 015:721 JLINK_Reset() -- CPU_WriteMem(4 bytes @ 0xE000EDF0) -- CPU_WriteMem(4 bytes @ 0xE000EDFC)Reset: Halt core after reset via DEMCR.VC_CORERESET. >0x35 TIF>Reset: Reset device via AIRCR.SYSRESETREQ. -- CPU_WriteMem(4 bytes @ 0xE000ED0C) >0x0D TIF> >0x28 TIF> -- CPU_ReadMem(4 bytes @ 0xE000EDF0) -- CPU_ReadMem(4 bytes @ 0xE000EDF0) -- CPU_WriteMem(4 bytes @ 0xE000EDF0) -- CPU_WriteMem(4 bytes @ 0xE000EDFC) -- CPU_ReadMem(4 bytes @ 0xE000EDF0) -- CPU_WriteMem(4 bytes @ 0xE0002000)
 -- CPU_ReadMem(4 bytes @ 0xE000EDFC) -- CPU_ReadMem(4 bytes @ 0xE0001000) (0066ms, 0475ms total)
T21C10 015:787 JLINK_ReadReg(R15 (PC))  returns 0x08000308 (0000ms, 0475ms total)
T21C10 015:787 JLINK_ReadReg(XPSR)  returns 0x01000000 (0000ms, 0475ms total)
T21C10 015:787 JLINK_ReadReg(R0)  returns 0x00000000 (0000ms, 0475ms total)
T21C10 015:787 JLINK_ReadReg(R1)  returns 0x00000000 (0000ms, 0475ms total)
T21C10 015:787 JLINK_ReadReg(R2)  returns 0x00000000 (0001ms, 0476ms total)
T21C10 015:788 JLINK_ReadReg(R3)  returns 0x00000000 (0000ms, 0476ms total)
T21C10 015:788 JLINK_ReadReg(R4)  returns 0x00000000 (0000ms, 0476ms total)
T21C10 015:788 JLINK_ReadReg(R5)  returns 0x00000000 (0000ms, 0476ms total)
T21C10 015:788 JLINK_ReadReg(R6)  returns 0x00000000 (0000ms, 0476ms total)
T21C10 015:789 JLINK_ReadReg(R7)  returns 0x00000000 (0000ms, 0477ms total)
T21C10 015:789 JLINK_ReadReg(R8)  returns 0x00000000 (0000ms, 0477ms total)
T21C10 015:789 JLINK_ReadReg(R9)  returns 0x00000000 (0000ms, 0477ms total)
T21C10 015:789 JLINK_ReadReg(R10)  returns 0x00000000 (0000ms, 0477ms total)
T21C10 015:789 JLINK_ReadReg(R11)  returns 0x00000000 (0000ms, 0477ms total)
T21C10 015:789 JLINK_ReadReg(R12)  returns 0x00000000 (0000ms, 0477ms total)
T21C10 015:789 JLINK_ReadReg(R13 (SP))  returns 0x200045C0 (0000ms, 0477ms total)
T21C10 015:789 JLINK_ReadReg(R14)  returns 0xFFFFFFFF (0000ms, 0477ms total)
T21C10 015:789 JLINK_ReadReg(R15 (PC))  returns 0x08000308 (0000ms, 0477ms total)
T21C10 015:789 JLINK_ReadReg(XPSR)  returns 0x01000000 (0000ms, 0477ms total)
T21C10 015:789 JLINK_ReadReg(MSP)  returns 0x200045C0 (0000ms, 0477ms total)
T21C10 015:789 JLINK_ReadReg(PSP)  returns 0x00000000 (0000ms, 0477ms total)
T21C10 015:789 JLINK_ReadReg(CFBP)  returns 0x00000000 (0000ms, 0477ms total)
T21C10 015:789 JLINK_ReadReg(FPSCR)  returns 0x00000000 (0003ms, 0480ms total)
T21C10 015:792 JLINK_ReadReg(FPS0)  returns 0x00000000 (0000ms, 0480ms total)
T21C10 015:792 JLINK_ReadReg(FPS1)  returns 0x00000000 (0000ms, 0480ms total)
T21C10 015:792 JLINK_ReadReg(FPS2)  returns 0x00000000 (0001ms, 0481ms total)
T21C10 015:793 JLINK_ReadReg(FPS3)  returns 0x00000000 (0000ms, 0481ms total)
T21C10 015:793 JLINK_ReadReg(FPS4)  returns 0x00000000 (0000ms, 0481ms total)
T21C10 015:793 JLINK_ReadReg(FPS5)  returns 0x00000000 (0000ms, 0481ms total)
T21C10 015:793 JLINK_ReadReg(FPS6)  returns 0x00000000 (0000ms, 0481ms total)
T21C10 015:793 JLINK_ReadReg(FPS7)  returns 0x00000000 (0000ms, 0481ms total)
T21C10 015:793 JLINK_ReadReg(FPS8)  returns 0x00000000 (0000ms, 0481ms total)
T21C10 015:793 JLINK_ReadReg(FPS9)  returns 0x00000000 (0000ms, 0481ms total)
T21C10 015:793 JLINK_ReadReg(FPS10)  returns 0x00000000 (0000ms, 0481ms total)
T21C10 015:793 JLINK_ReadReg(FPS11)  returns 0x00000000 (0000ms, 0481ms total)
T21C10 015:793 JLINK_ReadReg(FPS12)  returns 0x00000000 (0000ms, 0481ms total)
T21C10 015:793 JLINK_ReadReg(FPS13)  returns 0x00000000 (0000ms, 0481ms total)
T21C10 015:793 JLINK_ReadReg(FPS14)  returns 0x00000000 (0000ms, 0481ms total)
T21C10 015:793 JLINK_ReadReg(FPS15)  returns 0x00000000 (0000ms, 0481ms total)
T21C10 015:793 JLINK_ReadReg(FPS16)  returns 0x00000000 (0000ms, 0481ms total)
T21C10 015:793 JLINK_ReadReg(FPS17)  returns 0x00000000 (0000ms, 0481ms total)
T21C10 015:793 JLINK_ReadReg(FPS18)  returns 0x00000000 (0000ms, 0481ms total)
T21C10 015:793 JLINK_ReadReg(FPS19)  returns 0x00000000 (0000ms, 0481ms total)
T21C10 015:793 JLINK_ReadReg(FPS20)  returns 0x00000000 (0000ms, 0481ms total)
T21C10 015:793 JLINK_ReadReg(FPS21)  returns 0x00000000 (0000ms, 0481ms total)
T21C10 015:793 JLINK_ReadReg(FPS22)  returns 0x00000000 (0000ms, 0481ms total)
T21C10 015:793 JLINK_ReadReg(FPS23)  returns 0x00000000 (0000ms, 0481ms total)
T21C10 015:793 JLINK_ReadReg(FPS24)  returns 0x00000000 (0001ms, 0482ms total)
T21C10 015:794 JLINK_ReadReg(FPS25)  returns 0x00000000 (0000ms, 0482ms total)
T21C10 015:794 JLINK_ReadReg(FPS26)  returns 0x00000000 (0000ms, 0482ms total)
T21C10 015:794 JLINK_ReadReg(FPS27)  returns 0x00000000 (0000ms, 0482ms total)
T21C10 015:794 JLINK_ReadReg(FPS28)  returns 0x00000000 (0000ms, 0482ms total)
T21C10 015:794 JLINK_ReadReg(FPS29)  returns 0x00000000 (0000ms, 0482ms total)
T21C10 015:794 JLINK_ReadReg(FPS30)  returns 0x00000000 (0000ms, 0482ms total)
T21C10 015:794 JLINK_ReadReg(FPS31)  returns 0x00000000 (0000ms, 0482ms total)
T21C10 015:794 JLINK_ReadMemU32(0xE0001004, 0x0001 Items, ...) - Data: 00 00 00 00  returns 0x01 (0000ms, 0482ms total)
T21C10 015:803 JLINK_ReadMemEx(0x08000208, 0x003C Bytes, ..., Flags = 0x02000000) -- CPU_ReadMem(128 bytes @ 0x08000200) -- Updating C cache (128 bytes @ 0x08000200) -- Read from C cache (60 bytes @ 0x08000208) - Data: 00 25 00 26 10 3A 28 BF 78 C1 FB D8 52 07 28 BF ...  returns 0x3C (0001ms, 0483ms total)
T21C10 015:804 JLINK_ReadMemEx(0x08000244, 0x003C Bytes, ..., Flags = 0x02000000) -- Read from C cache (60 bytes @ 0x08000244) - Data: 03 68 1B 0A 28 BF 41 F0 80 01 69 29 00 F0 C2 81 ...  returns 0x3C (0000ms, 0483ms total)
T21C10 015:804 JLINK_ReadMemEx(0x08000280, 0x003C Bytes, ..., Flags = 0x02000000) -- CPU_ReadMem(64 bytes @ 0x08000280) -- Updating C cache (64 bytes @ 0x08000280) -- Read from C cache (60 bytes @ 0x08000280) - Data: 00 F0 E2 82 F8 29 00 F0 22 83 03 68 DB 09 28 BF ...  returns 0x3C (0002ms, 0485ms total)
T21C10 015:806 JLINK_ReadMemEx(0x080002BC, 0x003C Bytes, ..., Flags = 0x02000000) -- CPU_ReadMem(64 bytes @ 0x080002C0) -- Updating C cache (64 bytes @ 0x080002C0) -- Read from C cache (60 bytes @ 0x080002BC) - Data: 00 20 00 21 05 F0 44 FA 40 1C 60 60 00 20 00 21 ...  returns 0x3C (0001ms, 0486ms total)
T21C10 015:807 JLINK_ReadMemEx(0x080002F8, 0x003C Bytes, ..., Flags = 0x02000000) -- CPU_ReadMem(64 bytes @ 0x08000300) -- Updating C cache (64 bytes @ 0x08000300) -- Read from C cache (60 bytes @ 0x080002F8) - Data: FF F7 F2 FF 03 BC 00 F0 BB FB 00 00 01 F0 3D B9 ...  returns 0x3C (0001ms, 0487ms total)
T21C10 015:973 JLINK_ReadMemEx(0x2000017C, 0x0004 Bytes, ..., Flags = 0x02000000) -- CPU_ReadMem(64 bytes @ 0x20000140) -- Updating C cache (64 bytes @ 0x20000140) -- Read from C cache (4 bytes @ 0x2000017C) - Data: 00 00 00 00  returns 0x04 (0001ms, 0488ms total)
T21C10 015:974 JLINK_ReadMemEx(0x20000180, 0x0004 Bytes, ..., Flags = 0x02000000) -- CPU_ReadMem(64 bytes @ 0x20000180) -- Updating C cache (64 bytes @ 0x20000180) -- Read from C cache (4 bytes @ 0x20000180) - Data: 00 00 00 00  returns 0x04 (0000ms, 0488ms total)
T21C10 015:974 JLINK_ReadMemEx(0x20000184, 0x0004 Bytes, ..., Flags = 0x02000000) -- Read from C cache (4 bytes @ 0x20000184) - Data: 00 00 00 00  returns 0x04 (0000ms, 0488ms total)
T21C10 015:974 JLINK_ReadMemEx(0x20000074, 0x0008 Bytes, ..., Flags = 0x02000000) -- CPU_ReadMem(64 bytes @ 0x20000040) -- Updating C cache (64 bytes @ 0x20000040) -- Read from C cache (8 bytes @ 0x20000074) - Data: 00 00 00 00 00 00 00 00  returns 0x08 (0001ms, 0489ms total)
T22944 018:369 JLINK_ReadMemEx(0x08000308, 0x0002 Bytes, ..., Flags = 0x02000000) -- Read from C cache (2 bytes @ 0x08000308) - Data: 09 48  returns 0x02 (0000ms, 0489ms total)
T22944 018:369 JLINK_Go() -- CPU_ReadMem(4 bytes @ 0xE0001000) -- CPU_WriteMem(4 bytes @ 0xE0002008) -- CPU_WriteMem(4 bytes @ 0xE000200C) -- CPU_WriteMem(4 bytes @ 0xE0002010) -- CPU_WriteMem(4 bytes @ 0xE0002014) -- CPU_WriteMem(4 bytes @ 0xE0002018) -- CPU_WriteMem(4 bytes @ 0xE000201C) -- CPU_WriteMem(4 bytes @ 0xE0001004) (0003ms, 0492ms total)
T22944 018:473 JLINK_IsHalted()  returns TRUE (0002ms, 0494ms total)
T22944 018:475 JLINK_Halt()  returns 0x00 (0000ms, 0492ms total)
T22944 018:475 JLINK_IsHalted()  returns TRUE (0000ms, 0492ms total)
T22944 018:475 JLINK_IsHalted()  returns TRUE (0000ms, 0492ms total)
T22944 018:475 JLINK_IsHalted()  returns TRUE (0000ms, 0492ms total)
T22944 018:475 JLINK_ReadReg(R15 (PC))  returns 0x0800169A (0000ms, 0492ms total)
T22944 018:475 JLINK_ReadReg(XPSR)  returns 0x01000000 (0000ms, 0492ms total)
T22944 018:475 JLINK_ReadMemU32(0xE000ED30, 0x0001 Items, ...) -- CPU_ReadMem(4 bytes @ 0xE000ED30) - Data: 02 00 00 00  returns 0x01 (0001ms, 0493ms total)
T22944 018:476 JLINK_ReadMemU32(0xE0001028, 0x0001 Items, ...) -- CPU_ReadMem(4 bytes @ 0xE0001028) - Data: 00 00 00 00  returns 0x01 (0000ms, 0493ms total)
T22944 018:476 JLINK_ReadMemU32(0xE0001038, 0x0001 Items, ...) -- CPU_ReadMem(4 bytes @ 0xE0001038) - Data: 00 02 00 00  returns 0x01 (0000ms, 0493ms total)
T22944 018:476 JLINK_ReadMemU32(0xE0001048, 0x0001 Items, ...) -- CPU_ReadMem(4 bytes @ 0xE0001048) - Data: 00 00 00 00  returns 0x01 (0000ms, 0493ms total)
T22944 018:476 JLINK_ReadMemU32(0xE0001058, 0x0001 Items, ...) -- CPU_ReadMem(4 bytes @ 0xE0001058) - Data: 00 00 00 00  returns 0x01 (0002ms, 0495ms total)
T22944 018:478 JLINK_ReadReg(R0)  returns 0x00000015 (0000ms, 0495ms total)
T22944 018:478 JLINK_ReadReg(R1)  returns 0x20004570 (0000ms, 0495ms total)
T22944 018:478 JLINK_ReadReg(R2)  returns 0x2000458C (0000ms, 0495ms total)
T22944 018:478 JLINK_ReadReg(R3)  returns 0x00004000 (0000ms, 0495ms total)
T22944 018:478 JLINK_ReadReg(R4)  returns 0x200001C0 (0000ms, 0495ms total)
T22944 018:478 JLINK_ReadReg(R5)  returns 0x20000010 (0000ms, 0495ms total)
T22944 018:478 JLINK_ReadReg(R6)  returns 0x00000000 (0000ms, 0495ms total)
T22944 018:478 JLINK_ReadReg(R7)  returns 0x00000000 (0000ms, 0495ms total)
T22944 018:478 JLINK_ReadReg(R8)  returns 0x200001C0 (0000ms, 0495ms total)
T22944 018:478 JLINK_ReadReg(R9)  returns 0x00000000 (0000ms, 0495ms total)
T22944 018:478 JLINK_ReadReg(R10)  returns 0x00000000 (0000ms, 0495ms total)
T22944 018:479 JLINK_ReadReg(R11)  returns 0x00000000 (0000ms, 0496ms total)
T22944 018:479 JLINK_ReadReg(R12)  returns 0x20000050 (0000ms, 0496ms total)
T22944 018:479 JLINK_ReadReg(R13 (SP))  returns 0x20004570 (0000ms, 0496ms total)
T22944 018:479 JLINK_ReadReg(R14)  returns 0x080015AF (0000ms, 0496ms total)
T22944 018:479 JLINK_ReadReg(R15 (PC))  returns 0x0800169A (0000ms, 0496ms total)
T22944 018:479 JLINK_ReadReg(XPSR)  returns 0x01000000 (0000ms, 0496ms total)
T22944 018:479 JLINK_ReadReg(MSP)  returns 0x20004570 (0000ms, 0496ms total)
T22944 018:479 JLINK_ReadReg(PSP)  returns 0x00000000 (0000ms, 0496ms total)
T22944 018:479 JLINK_ReadReg(CFBP)  returns 0x04000000 (0000ms, 0496ms total)
T22944 018:479 JLINK_ReadReg(FPSCR)  returns 0x03000000 (0003ms, 0499ms total)
T22944 018:482 JLINK_ReadReg(FPS0)  returns 0x00000000 (0000ms, 0499ms total)
T22944 018:482 JLINK_ReadReg(FPS1)  returns 0x00000000 (0000ms, 0499ms total)
T22944 018:482 JLINK_ReadReg(FPS2)  returns 0x00000000 (0000ms, 0499ms total)
T22944 018:482 JLINK_ReadReg(FPS3)  returns 0x00000000 (0000ms, 0499ms total)
T22944 018:482 JLINK_ReadReg(FPS4)  returns 0x00000000 (0000ms, 0499ms total)
T22944 018:482 JLINK_ReadReg(FPS5)  returns 0x00000000 (0000ms, 0499ms total)
T22944 018:482 JLINK_ReadReg(FPS6)  returns 0x00000000 (0000ms, 0499ms total)
T22944 018:482 JLINK_ReadReg(FPS7)  returns 0x00000000 (0000ms, 0499ms total)
T22944 018:482 JLINK_ReadReg(FPS8)  returns 0x00000000 (0000ms, 0499ms total)
T22944 018:482 JLINK_ReadReg(FPS9)  returns 0x00000000 (0000ms, 0499ms total)
T22944 018:482 JLINK_ReadReg(FPS10)  returns 0x00000000 (0000ms, 0499ms total)
T22944 018:482 JLINK_ReadReg(FPS11)  returns 0x00000000 (0000ms, 0499ms total)
T22944 018:482 JLINK_ReadReg(FPS12)  returns 0x00000000 (0000ms, 0499ms total)
T22944 018:482 JLINK_ReadReg(FPS13)  returns 0x00000000 (0000ms, 0499ms total)
T22944 018:482 JLINK_ReadReg(FPS14)  returns 0x00000000 (0000ms, 0499ms total)
T22944 018:482 JLINK_ReadReg(FPS15)  returns 0x00000000 (0000ms, 0499ms total)
T22944 018:482 JLINK_ReadReg(FPS16)  returns 0x00000000 (0000ms, 0499ms total)
T22944 018:482 JLINK_ReadReg(FPS17)  returns 0x00000000 (0000ms, 0499ms total)
T22944 018:482 JLINK_ReadReg(FPS18)  returns 0x00000000 (0000ms, 0499ms total)
T22944 018:482 JLINK_ReadReg(FPS19)  returns 0x00000000 (0000ms, 0499ms total)
T22944 018:482 JLINK_ReadReg(FPS20)  returns 0x00000000 (0000ms, 0499ms total)
T22944 018:482 JLINK_ReadReg(FPS21)  returns 0x00000000 (0001ms, 0500ms total)
T22944 018:483 JLINK_ReadReg(FPS22)  returns 0x00000000 (0000ms, 0500ms total)
T22944 018:483 JLINK_ReadReg(FPS23)  returns 0x00000000 (0000ms, 0500ms total)
T22944 018:483 JLINK_ReadReg(FPS24)  returns 0x00000000 (0000ms, 0500ms total)
T22944 018:483 JLINK_ReadReg(FPS25)  returns 0x00000000 (0000ms, 0500ms total)
T22944 018:483 JLINK_ReadReg(FPS26)  returns 0x00000000 (0000ms, 0500ms total)
T22944 018:483 JLINK_ReadReg(FPS27)  returns 0x00000000 (0000ms, 0500ms total)
T22944 018:483 JLINK_ReadReg(FPS28)  returns 0x00000000 (0000ms, 0500ms total)
T22944 018:483 JLINK_ReadReg(FPS29)  returns 0x00000000 (0000ms, 0500ms total)
T22944 018:483 JLINK_ReadReg(FPS30)  returns 0x00000000 (0000ms, 0500ms total)
T22944 018:483 JLINK_ReadReg(FPS31)  returns 0x00000000 (0000ms, 0500ms total)
T21C10 018:483 JLINK_ReadMemEx(0x2000457C, 0x0004 Bytes, ..., Flags = 0x02000000) -- CPU_ReadMem(64 bytes @ 0x20004540) -- Updating C cache (64 bytes @ 0x20004540) -- Read from C cache (4 bytes @ 0x2000457C) - Data: AF 15 00 08  returns 0x04 (0001ms, 0501ms total)
T21C10 018:484 JLINK_ReadMemEx(0x20004578, 0x0004 Bytes, ..., Flags = 0x02000000) -- Read from C cache (4 bytes @ 0x20004578) - Data: 00 01 00 00  returns 0x04 (0000ms, 0501ms total)
T21C10 018:484 JLINK_ReadMemEx(0x200045B4, 0x0004 Bytes, ..., Flags = 0x02000000) -- CPU_ReadMem(64 bytes @ 0x20004580) -- Updating C cache (64 bytes @ 0x20004580) -- Read from C cache (4 bytes @ 0x200045B4) - Data: D9 02 00 08  returns 0x04 (0000ms, 0501ms total)
T21C10 018:484 JLINK_ReadMemEx(0x20004594, 0x0004 Bytes, ..., Flags = 0x02000000) -- Read from C cache (4 bytes @ 0x20004594) - Data: 30 00 00 20  returns 0x04 (0000ms, 0501ms total)
T21C10 018:484 JLINK_ReadMemEx(0x20004598, 0x0004 Bytes, ..., Flags = 0x02000000) -- Read from C cache (4 bytes @ 0x20004598) - Data: 10 00 00 20  returns 0x04 (0000ms, 0501ms total)
T21C10 018:484 JLINK_ReadMemEx(0x2000459C, 0x0004 Bytes, ..., Flags = 0x02000000) -- Read from C cache (4 bytes @ 0x2000459C) - Data: 00 00 00 00  returns 0x04 (0000ms, 0501ms total)
T21C10 018:484 JLINK_ReadMemEx(0x200045A0, 0x0004 Bytes, ..., Flags = 0x02000000) -- Read from C cache (4 bytes @ 0x200045A0) - Data: 00 00 00 00  returns 0x04 (0000ms, 0501ms total)
T21C10 018:484 JLINK_ReadMemEx(0x200045A4, 0x0004 Bytes, ..., Flags = 0x02000000) -- Read from C cache (4 bytes @ 0x200045A4) - Data: 00 00 00 00  returns 0x04 (0000ms, 0501ms total)
T21C10 018:484 JLINK_ReadMemEx(0x200045A8, 0x0004 Bytes, ..., Flags = 0x02000000) -- Read from C cache (4 bytes @ 0x200045A8) - Data: 00 00 00 00  returns 0x04 (0001ms, 0502ms total)
T21C10 018:485 JLINK_ReadMemEx(0x200045AC, 0x0004 Bytes, ..., Flags = 0x02000000) -- Read from C cache (4 bytes @ 0x200045AC) - Data: C4 58 00 08  returns 0x04 (0000ms, 0502ms total)
T21C10 018:485 JLINK_ReadMemEx(0x200045B0, 0x0004 Bytes, ..., Flags = 0x02000000) -- Read from C cache (4 bytes @ 0x200045B0) - Data: 00 00 00 00  returns 0x04 (0000ms, 0502ms total)
T21C10 018:493 JLINK_ReadMemU32(0xE0001004, 0x0001 Items, ...) -- CPU_ReadMem(4 bytes @ 0xE0001004) - Data: FA 23 00 00  returns 0x01 (0001ms, 0503ms total)
T21C10 018:494 JLINK_ReadMemEx(0x2000017C, 0x0004 Bytes, ..., Flags = 0x02000000) -- CPU_ReadMem(64 bytes @ 0x20000140) -- Updating C cache (64 bytes @ 0x20000140) -- Read from C cache (4 bytes @ 0x2000017C) - Data: 00 00 00 00  returns 0x04 (0001ms, 0504ms total)
T21C10 018:495 JLINK_ReadMemEx(0x20000180, 0x0004 Bytes, ..., Flags = 0x02000000) -- CPU_ReadMem(64 bytes @ 0x20000180) -- Updating C cache (64 bytes @ 0x20000180) -- Read from C cache (4 bytes @ 0x20000180) - Data: 00 00 00 00  returns 0x04 (0000ms, 0504ms total)
T21C10 018:495 JLINK_ReadMemEx(0x20000184, 0x0004 Bytes, ..., Flags = 0x02000000) -- Read from C cache (4 bytes @ 0x20000184) - Data: 00 00 00 00  returns 0x04 (0000ms, 0504ms total)
T21C10 018:496 JLINK_ReadMemEx(0x20000074, 0x0008 Bytes, ..., Flags = 0x02000000) -- CPU_ReadMem(64 bytes @ 0x20000040) -- Updating C cache (64 bytes @ 0x20000040) -- Read from C cache (8 bytes @ 0x20000074) - Data: 00 00 00 00 00 00 00 00  returns 0x08 (0000ms, 0505ms total)
T21C10 018:502 JLINK_ReadMemEx(0x0800169A, 0x0002 Bytes, ..., Flags = 0x02000000) -- CPU_ReadMem(64 bytes @ 0x08001680) -- Updating C cache (64 bytes @ 0x08001680) -- Read from C cache (2 bytes @ 0x0800169A) - Data: AB BE  returns 0x02 (0001ms, 0506ms total)
T21C10 018:503 JLINK_ReadMemEx(0x0800169C, 0x003C Bytes, ..., Flags = 0x02000000) -- CPU_ReadMem(64 bytes @ 0x080016C0) -- Updating C cache (64 bytes @ 0x080016C0) -- Read from C cache (60 bytes @ 0x0800169C) - Data: 08 B1 00 20 1C BD 20 46 1C BD 00 00 00 48 70 47 ...  returns 0x3C (0001ms, 0507ms total)
T21C10 029:439 JLINK_WriteMemEx(0x2000017C, 0x0004 Bytes, ..., Flags = 0x02000000) - Data: 00 00 80 3F -- CPU_WriteMem(4 bytes @ 0x2000017C)  returns 0x04 (0001ms, 0508ms total)
T21C10 029:441 JLINK_ReadMemU32(0xE0001004, 0x0001 Items, ...) - Data: FA 23 00 00  returns 0x01 (0000ms, 0508ms total)
T22944 039:939 JLINK_ReadMemEx(0x0800169A, 0x0002 Bytes, ..., Flags = 0x02000000) -- Read from C cache (2 bytes @ 0x0800169A) - Data: AB BE  returns 0x02 (0000ms, 0508ms total)
T22944 039:939 JLINK_WriteReg(R15 (PC), 0x0800169C)  returns 0x00 (0000ms, 0508ms total)
T22944 039:939 JLINK_Go() -- CPU_ReadMem(4 bytes @ 0xE0001000) (0002ms, 0510ms total)
T22944 040:042 JLINK_IsHalted()  returns FALSE (0000ms, 0510ms total)
T22944 040:143 JLINK_IsHalted()  returns FALSE (0000ms, 0510ms total)
T22944 040:244 JLINK_IsHalted()  returns FALSE (0000ms, 0510ms total)
T22944 040:344 JLINK_IsHalted()  returns FALSE (0000ms, 0510ms total)
T22944 040:446 JLINK_IsHalted()  returns FALSE (0000ms, 0510ms total)
T22944 040:547 JLINK_ReadMemU32(0xE0001004, 0x0001 Items, ...) -- CPU_ReadMem(4 bytes @ 0xE0001004) - Data: 4A 55 7E 06  returns 0x01 (0000ms, 0510ms total)
T21C10 040:548 JLINK_ReadMemEx(0x2000017C, 0x0004 Bytes, ..., Flags = 0x02000000) -- CPU_ReadMem(4 bytes @ 0x2000017C) - Data: 00 00 80 3F  returns 0x04 (0001ms, 0511ms total)
T21C10 040:549 JLINK_ReadMemEx(0x20000180, 0x0004 Bytes, ..., Flags = 0x02000000) -- CPU_ReadMem(4 bytes @ 0x20000180) - Data: 01 00 00 00  returns 0x04 (0000ms, 0511ms total)
T21C10 040:551 JLINK_ReadMemEx(0x20000184, 0x0004 Bytes, ..., Flags = 0x02000000) -- CPU_ReadMem(4 bytes @ 0x20000184) - Data: 00 00 04 42  returns 0x04 (0000ms, 0511ms total)
T21C10 040:551 JLINK_ReadMemEx(0x20000074, 0x0008 Bytes, ..., Flags = 0x02000000) -- CPU_ReadMem(8 bytes @ 0x20000074) - Data: 00 00 00 00 00 00 01 AD  returns 0x08 (0001ms, 0512ms total)
T22944 040:552 JLINK_IsHalted()  returns FALSE (0001ms, 0513ms total)
T22944 040:654 JLINK_IsHalted()  returns FALSE (0000ms, 0512ms total)
T22944 040:756 JLINK_IsHalted()  returns FALSE (0000ms, 0512ms total)
T22944 040:858 JLINK_IsHalted()  returns FALSE (0000ms, 0512ms total)
T22944 040:959 JLINK_IsHalted()  returns FALSE (0000ms, 0512ms total)
T22944 041:060 JLINK_ReadMemU32(0xE0001004, 0x0001 Items, ...) - Data: 4A 55 7E 06  returns 0x01 (0000ms, 0512ms total)
T21C10 041:061 JLINK_ReadMemEx(0x2000017C, 0x0004 Bytes, ..., Flags = 0x02000000) -- CPU_ReadMem(4 bytes @ 0x2000017C) - Data: 00 00 80 3F  returns 0x04 (0000ms, 0512ms total)
T21C10 041:061 JLINK_ReadMemEx(0x20000180, 0x0004 Bytes, ..., Flags = 0x02000000) -- CPU_ReadMem(4 bytes @ 0x20000180) - Data: 01 00 00 00  returns 0x04 (0001ms, 0513ms total)
T21C10 041:063 JLINK_ReadMemEx(0x20000184, 0x0004 Bytes, ..., Flags = 0x02000000) -- CPU_ReadMem(4 bytes @ 0x20000184) - Data: 00 00 04 42  returns 0x04 (0000ms, 0513ms total)
T21C10 041:064 JLINK_ReadMemEx(0x20000074, 0x0008 Bytes, ..., Flags = 0x02000000) -- CPU_ReadMem(8 bytes @ 0x20000074) - Data: 00 00 00 00 00 00 01 AD  returns 0x08 (0001ms, 0514ms total)
T22944 041:065 JLINK_IsHalted()  returns FALSE (0001ms, 0515ms total)
T22944 041:167 JLINK_IsHalted()  returns FALSE (0000ms, 0514ms total)
T22944 041:267 JLINK_IsHalted()  returns FALSE (0000ms, 0514ms total)
T22944 041:368 JLINK_IsHalted()  returns FALSE (0000ms, 0514ms total)
T22944 041:469 JLINK_IsHalted()  returns FALSE (0000ms, 0514ms total)
T22944 041:570 JLINK_ReadMemU32(0xE0001004, 0x0001 Items, ...) - Data: 4A 55 7E 06  returns 0x01 (0000ms, 0514ms total)
T21C10 041:570 JLINK_ReadMemEx(0x2000017C, 0x0004 Bytes, ..., Flags = 0x02000000) -- CPU_ReadMem(4 bytes @ 0x2000017C) - Data: 00 00 80 3F  returns 0x04 (0001ms, 0515ms total)
T21C10 041:571 JLINK_ReadMemEx(0x20000180, 0x0004 Bytes, ..., Flags = 0x02000000) -- CPU_ReadMem(4 bytes @ 0x20000180) - Data: 01 00 00 00  returns 0x04 (0000ms, 0515ms total)
T21C10 041:571 JLINK_ReadMemEx(0x20000184, 0x0004 Bytes, ..., Flags = 0x02000000) -- CPU_ReadMem(4 bytes @ 0x20000184) - Data: 00 00 04 42  returns 0x04 (0001ms, 0516ms total)
T21C10 041:572 JLINK_ReadMemEx(0x20000074, 0x0008 Bytes, ..., Flags = 0x02000000) -- CPU_ReadMem(8 bytes @ 0x20000074) - Data: 00 00 00 00 00 00 01 AD  returns 0x08 (0000ms, 0516ms total)
T22944 041:574 JLINK_IsHalted()  returns FALSE (0000ms, 0516ms total)
T22944 041:676 JLINK_IsHalted()  returns FALSE (0000ms, 0516ms total)
T22944 041:776 JLINK_IsHalted()  returns FALSE (0000ms, 0516ms total)
T22944 041:877 JLINK_IsHalted()  returns FALSE (0000ms, 0516ms total)
T22944 041:979 JLINK_IsHalted()  returns FALSE (0000ms, 0516ms total)
T22944 042:080 JLINK_ReadMemU32(0xE0001004, 0x0001 Items, ...) - Data: 4A 55 7E 06  returns 0x01 (0000ms, 0516ms total)
T21C10 042:080 JLINK_ReadMemEx(0x2000017C, 0x0004 Bytes, ..., Flags = 0x02000000) -- CPU_ReadMem(4 bytes @ 0x2000017C) - Data: 00 00 80 3F  returns 0x04 (0000ms, 0516ms total)
T21C10 042:080 JLINK_ReadMemEx(0x20000180, 0x0004 Bytes, ..., Flags = 0x02000000) -- CPU_ReadMem(4 bytes @ 0x20000180) - Data: 01 00 00 00  returns 0x04 (0001ms, 0517ms total)
T21C10 042:081 JLINK_ReadMemEx(0x20000184, 0x0004 Bytes, ..., Flags = 0x02000000) -- CPU_ReadMem(4 bytes @ 0x20000184) - Data: 00 00 04 42  returns 0x04 (0000ms, 0517ms total)
T21C10 042:081 JLINK_ReadMemEx(0x20000074, 0x0008 Bytes, ..., Flags = 0x02000000) -- CPU_ReadMem(8 bytes @ 0x20000074) - Data: 00 00 00 00 00 00 01 AD  returns 0x08 (0001ms, 0518ms total)
T22944 042:083 JLINK_IsHalted()  returns FALSE (0000ms, 0518ms total)
T22944 042:185 JLINK_IsHalted()  returns FALSE (0000ms, 0518ms total)
T22944 042:286 JLINK_IsHalted()  returns FALSE (0000ms, 0518ms total)
T22944 042:387 JLINK_IsHalted()  returns FALSE (0000ms, 0518ms total)
T22944 042:488 JLINK_IsHalted()  returns FALSE (0000ms, 0518ms total)
T22944 042:590 JLINK_IsHalted()  returns FALSE (0000ms, 0518ms total)
T22944 042:691 JLINK_ReadMemU32(0xE0001004, 0x0001 Items, ...) - Data: 4A 55 7E 06  returns 0x01 (0000ms, 0518ms total)
T21C10 042:691 JLINK_ReadMemEx(0x2000017C, 0x0004 Bytes, ..., Flags = 0x02000000) -- CPU_ReadMem(4 bytes @ 0x2000017C) - Data: 00 00 80 3F  returns 0x04 (0000ms, 0518ms total)
